name,type,start_time,duration,"ack","address","read","data"
"I2C","start",-0.13039455,1.00000002e-08,,,,
"I2C","start",-0.13038419,9.99999975e-09,,,,
"I2C","stop",-0.13038408,9.99999997e-09,,,,
"I2C","start",-0.13036106,9.99999997e-09,,,,
"I2C","address",-0.13032929,0.00028007,true,0x08,false,
"I2C","data",-0.13004309,0.00028007,true,,,0x4F
"I2C","data",-0.12975689,0.00028006,true,,,0x00
"I2C","stop",-0.12944493,9.99999997e-09,,,,
"I2C","start",-0.12942071,9.99999997e-09,,,,
"I2C","address",-0.12938893,0.00028006,true,0x08,false,
"I2C","data",-0.12910274,0.00028007,true,,,0x50
"I2C","data",-0.12881654,0.00028007,true,,,0x0F
"I2C","stop",-0.12850458,9.99999997e-09,,,,
"I2C","start",-0.12848431,9.99999997e-09,,,,
"I2C","address",-0.12845254,0.00028007,true,0x08,false,
"I2C","data",-0.12816634,0.00028007,true,,,0x4C
"I2C","data",-0.12788014,0.00028007,true,,,0x05
"I2C","stop",-0.12756818,9.99999997e-09,,,,
"I2C","start",-0.12754699,9.99999997e-09,,,,
"I2C","address",-0.12751522,0.00028007,true,0x08,false,
"I2C","data",-0.12722902,0.00028006,true,,,0x4D
"I2C","data",-0.12694282,0.00028006,true,,,0x03
"I2C","stop",-0.12663086,9.99999997e-09,,,,
"I2C","start",-0.12660904,9.99999997e-09,,,,
"I2C","address",-0.12657726,0.00028006,true,0x08,false,
"I2C","data",-0.12629106,0.00028006,true,,,0x52
"I2C","data",-0.12600487,0.00028007,true,,,0x09
"I2C","stop",-0.12569291,9.99999997e-09,,,,
"I2C","start",-0.12567152,9.99999997e-09,,,,
"I2C","address",-0.12563975,0.00028007,true,0x08,false,
"I2C","data",-0.12535355,0.00028007,true,,,0x53
"I2C","data",-0.12506735,0.00028007,true,,,0x0F
"I2C","stop",-0.12475539,9.99999997e-09,,,,
"I2C","start",-0.11446396,9.99999997e-09,,,,
"I2C","address",-0.11443219,0.00028007,true,0x08,false,
"I2C","data",-0.11414599,0.00028007,true,,,0x9C
"I2C","data",-0.11385979,0.00028007,true,,,0x80
"I2C","stop",-0.11354783,9.99999997e-09,,,,
"I2C","start",-0.11352624,1.00000002e-08,,,,
"I2C","address",-0.11349447,0.00028007,true,0x08,false,
"I2C","data",-0.11320827,0.00028007,true,,,0x9E
"I2C","data",-0.11292207,0.00028007,true,,,0x20
"I2C","stop",-0.11261011,9.99999997e-09,,,,
"I2C","start",-0.10246376,9.99999997e-09,,,,
"I2C","address",-0.10243199,0.00028007,true,0x08,false,
"I2C","data",-0.10214579,0.00028007,true,,,0x42
"I2C","data",-0.10185959,0.00028007,true,,,0x02
"I2C","stop",-0.10154763,9.99999997e-09,,,,
"I2C","start",-0.0914642,1.00000002e-08,,,,
"I2C","address",-0.09143242,0.00028006,true,0x08,false,
"I2C","data",-0.09114622,0.00028006,true,,,0x94
"I2C","data",-0.09086003,0.00028007,true,,,0xA0
"I2C","stop",-0.09054806,9.99999997e-09,,,,
"I2C","start",-0.09052696,9.99999997e-09,,,,
"I2C","address",-0.09049519,0.00028007,true,0x08,false,
"I2C","data",-0.09020899,0.00028007,true,,,0x3B
"I2C","data",-0.08992279,0.00028007,true,,,0x0F
"I2C","stop",-0.08961083,9.99999997e-09,,,,
"I2C","start",-0.08958828,1.00000002e-08,,,,
"I2C","address",-0.08955651,0.00028007,true,0x08,false,
"I2C","data",-0.08927031,0.00028007,true,,,0x35
"I2C","data",-0.08898411,0.00028007,true,,,0x0F
"I2C","stop",-0.08867215,1.00000002e-08,,,,
"I2C","start",-9.5e-06,9.99999997e-09,,,,
"I2C","address",8.63753513e-17,8.069e-05,true,0x08,false,
"I2C","data",8.55e-05,8.069e-05,true,,,0x42
"I2C","data",0.000171,8.069e-05,true,,,0x01
"I2C","stop",0.00026125,9.99999997e-09,,,,
